# HZ S RI R 50
1000000 -0.009926879613807784 0.00022511956163148437 0.010483658326389493 -4.686469759463336e-05 0 0 0 0
5990000 -0.009694517454755192 0.0006881270203487949 0.010471048597340427 -0.00018794903268872217 0 0 0 0
10980000 -0.009530365951307034 0.0010683102999013423 0.01045104761936355 -0.0002923250837411081 0 0 0 0
15970000 -0.009427114005458247 0.0013718422567595312 0.010470479285611655 -0.000403904536087564 0 0 0 0
20960000 -0.009316030670432926 0.00167068041745087 0.010446314104979138 -0.0005056758484049343 0 0 0 0
25950000 -0.009243044358098317 0.0019139857592400363 0.010436789016935032 -0.0006313959352461576 0 0 0 0
30940000 -0.009213110533713556 0.0022038575725262352 0.010403154843889565 -0.0007466946613537296 0 0 0 0
35930000 -0.009198565805083042 0.002415255772279682 0.010401285524228344 -0.0008532618654725648 0 0 0 0
40920000 -0.00918811784426773 0.0026996912824070415 0.010368698174208617 -0.0009730008893813067 0 0 0 0
45910000 -0.009202895187926602 0.002913944280018945 0.010344274183461948 -0.0010831757897714562 0 0 0 0
50900000 -0.009258839232863546 0.0031150037149799245 0.0103265197983221 -0.0012162366554685769 0 0 0 0
55890000 -0.00927323965960764 0.0033334106231926136 0.010300057304757259 -0.0013183585233332634 0 0 0 0
60880000 -0.009344404275685872 0.0035434873945271303 0.010276190295858854 -0.0014130224339462107 0 0 0 0
65870000 -0.009464308404453404 0.0037718215415565148 0.01026351513766408 -0.0015249142125896892 0 0 0 0
70860000 -0.009541002478614672 0.0039715410071365816 0.010215852049605345 -0.0016669357214342915 0 0 0 0
75850000 -0.009677329174208868 0.0042264415655069235 0.01018068647941644 -0.0017579692434143155 0 0 0 0
80840000 -0.009836294313230064 0.004461960217816328 0.010149803894711573 -0.0019076427986160066 0 0 0 0
85830000 -0.009994175340963604 0.004743388390278694 0.010108781754273438 -0.002043262787677705 0 0 0 0
90820000 -0.010168366925655096 0.004961209391913618 0.01008061741351404 -0.0021081632272443064 0 0 0 0
95810000 -0.010337282943395925 0.005198212064150392 0.010059520658064938 -0.0022178357323079313 0 0 0 0
100800000 -0.010522489021932096 0.00547159519974053 0.010022710035479665 -0.002326435139231428 0 0 0 0
105790000 -0.010716383769465456 0.0056789369334011314 0.009970475390512339 -0.0024061073928413864 0 0 0 0
110780000 -0.010942475684889501 0.005911370247828015 0.009936976241212278 -0.002479191241307815 0 0 0 0
115770000 -0.011148665950973064 0.006179730369954244 0.009904798150400495 -0.0025727569431155013 0 0 0 0
120760000 -0.011376567290832645 0.006452739473486649 0.009829909052141135 -0.002645741320799591 0 0 0 0
125750000 -0.011613763923732468 0.0067397590969490336 0.009779506908833436 -0.00278524085093263 0 0 0 0
130740000 -0.01184561650541208 0.007005667320762997 0.009739468773867102 -0.0028372182951748722 0 0 0 0
135730000 -0.012104075936959485 0.007306287366204189 0.009681116415236685 -0.002891196285963542 0 0 0 0
140720000 -0.012333919474406528 0.007633856516075451 0.00962320633440301 -0.0029350833837960065 0 0 0 0
145710000 -0.012598222650419816 0.007937206317721424 0.009580505024713038 -0.0029653239512380716 0 0 0 0
150700000 -0.012861183472232498 0.008228980010483916 0.009513220926846092 -0.0030405939790108063 0 0 0 0
155690000 -0.01314773114927004 0.008529833679463004 0.009464432022648149 -0.003117074655751142 0 0 0 0
160680000 -0.013436963613808802 0.008861877376333562 0.009483935564176607 -0.003172697121089877 0 0 0 0
165670000 -0.01372008880691448 0.009237324378826258 0.009449706059128713 -0.0032742312005164752 0 0 0 0
170660000 -0.01399325022118075 0.009632516217440398 0.009408953226323109 -0.0033391460778865725 0 0 0 0
175650000 -0.014264121436300148 0.01003869363281078 0.009340287122453767 -0.0034060865505781157 0 0 0 0
180640000 -0.014540088883782528 0.010473248810104125 0.009250548398895816 -0.003445693891132486 0 0 0 0
185630000 -0.014794757393421799 0.010914018431815758 0.009187622208120432 -0.0035068930457622894 0 0 0 0
190620000 -0.014982299144158525 0.0113474005260089 0.009132437689938929 -0.003643104822370202 0 0 0 0
195610000 -0.015376404009055563 0.011659606866911592 0.00910511606318568 -0.00379886447774328 0 0 0 0
200600000 -0.015709198014870387 0.01214924232544788 0.009077752774917881 -0.003974806848910658 0 0 0 0
205590000 -0.016029646326694843 0.012608571821971469 0.009043346238991954 -0.0041355386469884405 0 0 0 0
210580000 -0.01640060124505644 0.013076113503180959 0.009011361058588081 -0.00430590513334401 0 0 0 0
215570000 -0.016681181842045378 0.013610787589272016 0.009023260104869854 -0.00446675711839797 0 0 0 0
220560000 -0.01696397853034821 0.014120430593072364 0.009002536635590936 -0.0045502805582381565 0 0 0 0
225550000 -0.017232668376313726 0.014686749592995806 0.009027560779191814 -0.004612233729945144 0 0 0 0
230540000 -0.01756444698178143 0.015250641153654867 0.008937077273841848 -0.004633744176347035 0 0 0 0
235530000 -0.01773466183822417 0.015832704153753086 0.008847291877223324 -0.004668853650266216 0 0 0 0
240520000 -0.018026657912206884 0.016466240790305692 0.008798100094604874 -0.004680154296057694 0 0 0 0
245510000 -0.018251419746800904 0.017077393633197338 0.008773658126631462 -0.004788212471978989 0 0 0 0
250500000 -0.018506289953735166 0.017721929426470096 0.008766714685984674 -0.0048870473964474255 0 0 0 0
255490000 -0.018703745828994273 0.01836757585794277 0.008768422545927936 -0.004986805726075836 0 0 0 0
260480000 -0.019097577404457236 0.018936202677806394 0.00876562882190762 -0.005062438593227745 0 0 0 0
265470000 -0.019249399851329663 0.019604427979905005 0.008709279490671474 -0.005153441564055367 0 0 0 0
270460000 -0.019543718378336843 0.020230007466147153 0.008648530774083478 -0.005206664397382597 0 0 0 0
275450000 -0.019793239968467855 0.02089883104016804 0.00855273907320023 -0.005274343889137023 0 0 0 0
280440000 -0.01996500602818261 0.02164829984596951 0.008519649759683088 -0.005382435967489054 0 0 0 0
285430000 -0.02021828352431356 0.022405654067089522 0.008441528074165594 -0.005509202710826966 0 0 0 0
290420000 -0.020412706623428954 0.023172479394865247 0.008383987314781316 -0.005585089700371885 0 0 0 0
295410000 -0.02067698006211255 0.024000005423771956 0.008328942590982444 -0.005562469530049021 0 0 0 0
300400000 -0.02097194725759455 0.024728651616978577 0.008066196829322799 -0.005605519941058406 0 0 0 0
305390000 -0.021040264616464986 0.02547507930738375 0.007771376472177468 -0.005671111799168072 0 0 0 0
310380000 -0.021468435820197786 0.02643437122247841 0.007905809261705072 -0.005764548518489802 0 0 0 0
315370000 -0.021652740160640272 0.0273501502996481 0.007906894284602837 -0.0058560477799600545 0 0 0 0
320360000 -0.021634379042429416 0.028512415238181217 0.0074556068434041105 -0.005953691244926585 0 0 0 0
325350000 -0.022030348752472954 0.029227211015848475 0.007903432907490633 -0.0059723361665105015 0 0 0 0
330340000 -0.022475964059605332 0.029920644422070597 0.007733378068573208 -0.005895564778595126 0 0 0 0
335330000 -0.02274869687790013 0.03055101678696457 0.00765252533643086 -0.006173271358158874 0 0 0 0
340320000 -0.02282181520730852 0.03175944830141839 0.0072043209079275545 -0.006364167430967126 0 0 0 0
345310000 -0.02303953509770482 0.03273441510840243 0.007349235603346292 -0.006459436297725395 0 0 0 0
350300000 -0.023040749948158867 0.03407316395134874 0.007357311078743771 -0.006070868586752742 0 0 0 0
355290000 -0.023345929404108342 0.03502744823757722 0.007379886214230439 -0.006248109190085818 0 0 0 0
360280000 -0.023572602610178517 0.036163872740917966 0.007476606659861345 -0.0063170388545213275 0 0 0 0
365270000 -0.023655523729959917 0.03723428800411377 0.006919239798012202 -0.006271968475759034 0 0 0 0
370260000 -0.023826086579058083 0.03818419150872658 0.007256000202033512 -0.0062043858201791405 0 0 0 0
375250000 -0.02402303010938398 0.03949816142627859 0.006885911008379873 -0.006528624675118056 0 0 0 0
380240000 -0.02446128909195184 0.04031642564386091 0.007332580486357753 -0.006819891308844534 0 0 0 0
385230000 -0.024528462036359423 0.04163115927176694 0.007090182038924961 -0.00626599254398862 0 0 0 0
390220000 -0.024812328981260776 0.042852706653600706 0.006907271405582672 -0.006369145962780761 0 0 0 0
395210000 -0.025017757573651177 0.044160598262547694 0.006871536260078194 -0.006453617621939889 0 0 0 0
400200000 -0.024932979029627572 0.045342044464552866 0.007102596874152829 -0.006730255140154155 0 0 0 0
405190000 -0.024959939575856432 0.04634939537959496 0.006926597735670215 -0.006658992325738045 0 0 0 0
410180000 -0.02530239085062337 0.047642775690238594 0.006756040717267371 -0.006466208339950607 0 0 0 0
415170000 -0.02524092985945894 0.048802755302814076 0.006916467640208535 -0.006474074854503545 0 0 0 0
420160000 -0.02532702517255261 0.05022843818836482 0.006721626318668239 -0.006710025661918751 0 0 0 0
425150000 -0.025315311931189338 0.05139394779158794 0.007092770164376778 -0.006906768893861287 0 0 0 0
430140000 -0.025369340125628557 0.052759121574352356 0.006619690918481668 -0.0071964976616557584 0 0 0 0
435130000 -0.025369159568965505 0.054048556606272315 0.006724190630535041 -0.007422811138453411 0 0 0 0
440120000 -0.02530253601526658 0.0553485374715946 0.006507366469753538 -0.0069850498394146985 0 0 0 0
445110000 -0.025093920121551976 0.05682194312092578 0.00674936266026803 -0.007169574219633807 0 0 0 0
450100000 -0.025016695759454904 0.058293431623033985 0.006929800555589741 -0.007035436121279539 0 0 0 0
455090000 -0.024695677233075884 0.059348919245219886 0.006564246576494461 -0.007448916529704846 0 0 0 0
460080000 -0.02473458963808477 0.06040064115251286 0.006428884021706759 -0.007290616552362994 0 0 0 0
465070000 -0.024711847186778546 0.06152833312091354 0.006782663298339542 -0.007252564154135378 0 0 0 0
470060000 -0.02450684090196504 0.06319634775478344 0.006602414197497158 -0.007383545695061631 0 0 0 0
475050000 -0.0247356554854039 0.06426091859815374 0.006834008010678556 -0.007563797036536459 0 0 0 0
480040000 -0.024779909456561146 0.06564850415787597 0.006316358602056445 -0.007635475260671554 0 0 0 0
485030000 -0.024797195849087777 0.06706913886633478 0.006245350280911567 -0.007369926516170404 0 0 0 0
490020000 -0.024641801799277514 0.06849736467472402 0.0065564608758948905 -0.007667867102996627 0 0 0 0
495010000 -0.024040859266578906 0.06997127705444976 0.006594114035027963 -0.007653808251361309 0 0 0 0
500000000 -0.024281427392031256 0.07109470008696821 0.006186890205730118 -0.007581763214878605 0 0 0 0
