# HZ S RI R 50
1000000 -0.016804345236744418 0.0008599403780749969 0.9908056730695423 -0.0035237390991417626 0 0 0 0
5990000 -0.015555125280328496 0.0025079990614019416 0.9902412332382844 -0.01989813873070768 0 0 0 0
10980000 -0.014889296133372991 0.003575206678745235 0.989569521142541 -0.03621039210611251 0 0 0 0
15970000 -0.014382804163769452 0.004481494101904618 0.9885839985391619 -0.052250384894963954 0 0 0 0
20960000 -0.013983787152494622 0.005364123595495658 0.9873007011679986 -0.06842924361247088 0 0 0 0
25950000 -0.013723753963612919 0.006161426441368054 0.9858462571122693 -0.08430780558213342 0 0 0 0
30940000 -0.013512294226681964 0.007029513467928427 0.9839680593489324 -0.10033285981586022 0 0 0 0
35930000 -0.013381002069560891 0.007894548943063294 0.9821006311890711 -0.11596784172222764 0 0 0 0
40920000 -0.013219313800824502 0.008940188920139865 0.9797692201890218 -0.13230690868479378 0 0 0 0
45910000 -0.013174153053318118 0.009921655460188718 0.9776359119898654 -0.1482400163052097 0 0 0 0
50900000 -0.013114333978328646 0.011016166181452692 0.9748468217184053 -0.163311606181426 0 0 0 0
55890000 -0.012922668321120883 0.012166816830755937 0.9714905547774344 -0.17850392839062 0 0 0 0
60880000 -0.012804837410983566 0.013464673683010407 0.9683745142725811 -0.19380652145389213 0 0 0 0
65870000 -0.012500365274328564 0.014860603647470352 0.9645074048246807 -0.20925789633693173 0 0 0 0
70860000 -0.012089525505702357 0.01633181785117254 0.960690120622505 -0.2243251718913218 0 0 0 0
75850000 -0.011546466631542901 0.017899715939206896 0.9562193746717393 -0.2398967233776632 0 0 0 0
80840000 -0.010814307172570672 0.01954396545662122 0.9516703536346037 -0.2579008286537759 0 0 0 0
85830000 -0.010153672760514104 0.021172167761927145 0.9481801469455536 -0.27561134149291794 0 0 0 0
90820000 -0.009385340666319833 0.022726310576186085 0.9442249880884672 -0.2905916129016622 0 0 0 0
95810000 -0.008363245913285685 0.024262634924871896 0.9397725016814342 -0.3045334413697152 0 0 0 0
100800000 -0.007017049866122255 0.025809857806549475 0.9343702678589239 -0.3187611603278746 0 0 0 0
105790000 -0.005470265884418826 0.027284989817608313 0.9292054203022412 -0.3331604699236488 0 0 0 0
110780000 -0.0037397818671511085 0.028590459063885007 0.923938373690292 -0.34678905842949875 0 0 0 0
115770000 -0.0017601215500613744 0.02980773076712888 0.9176786330215636 -0.3610547643907319 0 0 0 0
120760000 0.00035353650801489095 0.03085444078530017 0.911858330536079 -0.3756497793676744 0 0 0 0
125750000 0.0026724534723590932 0.031721979889161624 0.9054416227964294 -0.39042754208873176 0 0 0 0
130740000 0.0051329509486970374 0.03239230864954582 0.8989671586348459 -0.4049877401482989 0 0 0 0
135730000 0.007813572747856502 0.03289492279345659 0.8925304034848148 -0.4191158505605664 0 0 0 0
140720000 0.010608792319077433 0.03321097325283453 0.8857628980073197 -0.432855985874006 0 0 0 0
145710000 0.013496232967437542 0.03327668985488371 0.879136993108016 -0.4463781884677187 0 0 0 0
150700000 0.016381497379046036 0.03302645483605482 0.8725156487928657 -0.4599510224471002 0 0 0 0
155690000 0.01920347648463194 0.03229892365869751 0.8653894377364832 -0.4726071950396555 0 0 0 0
160680000 0.021985361852204795 0.03141248203906502 0.8572057487255925 -0.48612217913289335 0 0 0 0
165670000 0.024616182844429197 0.030099677255499283 0.8487976895295175 -0.49955100475040864 0 0 0 0
170660000 0.02712007912006639 0.02847489071746193 0.8397559088327617 -0.512634127640989 0 0 0 0
175650000 0.02946594484056019 0.026341864431101997 0.8308227488937212 -0.5253215109722751 0 0 0 0
180640000 0.03163560805630131 0.02391735764195196 0.8222395674241022 -0.5374251337071477 0 0 0 0
185630000 0.03363355894674994 0.021263974985846396 0.8141513861323698 -0.5491337077513632 0 0 0 0
190620000 0.035510772438407875 0.01823647325703708 0.8064593281322835 -0.5607083739248105 0 0 0 0
195610000 0.0367647731558353 0.01484395967480653 0.7981596659804722 -0.5729223423620012 0 0 0 0
200600000 0.03783767569964524 0.011364649984163111 0.7893479558186773 -0.5853168647384507 0 0 0 0
205590000 0.03844759537522867 0.007660052080723777 0.7799264088036888 -0.5977707420018727 0 0 0 0
210580000 0.038688494016180484 0.00374858477037459 0.7698532977482796 -0.6106771927765803 0 0 0 0
215570000 0.038532923071324186 -0.00014035608691552424 0.758363095208651 -0.6237159185224248 0 0 0 0
220560000 0.0378705524339085 -0.004087817762919958 0.7465169400000629 -0.6370780952439067 0 0 0 0
225550000 0.03677683973333908 -0.007985128919040572 0.7351164481612178 -0.6500896183801496 0 0 0 0
230540000 0.03522458010350347 -0.011934393526015443 0.72292719791683 -0.6627889083541926 0 0 0 0
235530000 0.03326073137396123 -0.015769207447511025 0.7110941117187533 -0.6753969627523487 0 0 0 0
240520000 0.03080946226802323 -0.019437550037003943 0.6988602133351564 -0.6869140491719143 0 0 0 0
245510000 0.027929164830430165 -0.02296107313078186 0.687595095541509 -0.6984965687704091 0 0 0 0
250500000 0.024556787818073144 -0.02620004644668833 0.6770334824286864 -0.7093782589501387 0 0 0 0
255490000 0.0207643368009732 -0.029210884752865277 0.667678995241479 -0.7177470203440618 0 0 0 0
260480000 0.016328215915000107 -0.031869563182675434 0.6584652942799766 -0.7255238588403669 0 0 0 0
265470000 0.011735394694219817 -0.034060003940719216 0.6475788253962669 -0.7361277892738171 0 0 0 0
270460000 0.006718537187965594 -0.035852802122344395 0.6367548893439995 -0.7459446128268299 0 0 0 0
275450000 0.0013310953688547066 -0.037123813554294165 0.625325078693175 -0.7556495567157938 0 0 0 0
280440000 -0.004184733860246393 -0.03781249468975827 0.6138771806128421 -0.7651255021471788 0 0 0 0
285430000 -0.009950045634100317 -0.038053165778469775 0.6016056967436232 -0.7737139605086741 0 0 0 0
290420000 -0.015796657966532523 -0.03757310319904035 0.5905553409521451 -0.7824259660131788 0 0 0 0
295410000 -0.021641931277998832 -0.03666393083040078 0.5790731795186635 -0.7898766195470608 0 0 0 0
300400000 -0.027325099724164203 -0.0355962352322739 0.5571329532566553 -0.79115801619019 0 0 0 0
305390000 -0.03251721649503013 -0.03344739782004044 0.5429875506476372 -0.8012038227825373 0 0 0 0
310380000 -0.038093830982022285 -0.03074523325514611 0.5351472695214381 -0.8105014635058946 0 0 0 0
315370000 -0.04336307335065323 -0.027668651384732557 0.5222515089044186 -0.8186540800476736 0 0 0 0
320360000 -0.048073193987210786 -0.023398359693649454 0.5097227047829501 -0.8274814333872959 0 0 0 0
325350000 -0.05264145989037816 -0.019093409289913425 0.49419237944531264 -0.8353460146368404 0 0 0 0
330340000 -0.05674549124945592 -0.014420619516592221 0.48247416449476943 -0.8399097525831459 0 0 0 0
335330000 -0.06095331512054499 -0.009271413485111178 0.46846040046262 -0.8478039079758999 0 0 0 0
340320000 -0.0642737512479834 -0.003684645569078314 0.4527100750939898 -0.8569010856426137 0 0 0 0
345310000 -0.0665824493926361 0.0028810714740718194 0.44351888460320804 -0.8647936916131257 0 0 0 0
350300000 -0.06863182372817717 0.009625130288860624 0.4270445894074854 -0.8672496471992875 0 0 0 0
355290000 -0.07023257938532158 0.016181674916442592 0.4112554816290177 -0.8771537782395036 0 0 0 0
360280000 -0.0710906814145963 0.023107080282777744 0.39690389572158896 -0.8850224075047542 0 0 0 0
365270000 -0.07110742688237155 0.030275596330548375 0.38026637779877187 -0.8898393471352593 0 0 0 0
370260000 -0.07056681291371586 0.03712018147648613 0.36691874239630223 -0.896294163795455 0 0 0 0
375250000 -0.06932513087239689 0.044026272982320355 0.352405747372467 -0.9019550425655072 0 0 0 0
380240000 -0.0675213556662561 0.050549115326745775 0.3391827708107471 -0.9090225825239867 0 0 0 0
385230000 -0.06469542097395073 0.0572974885981738 0.32303130389939383 -0.9129513063698839 0 0 0 0
390220000 -0.06138928668229558 0.06362741007561283 0.30728019388404515 -0.9185292804650746 0 0 0 0
395210000 -0.057420202873864214 0.0693251337486836 0.29102236447963237 -0.9230083606217098 0 0 0 0
400200000 -0.05257166802219007 0.07467413473007088 0.27637734798708696 -0.9276860320237763 0 0 0 0
405190000 -0.04731903537462 0.07927545726220224 0.26194895144627084 -0.9296998441728523 0 0 0 0
410180000 -0.04186991293768504 0.08349779207105566 0.24544240951028404 -0.935698265486871 0 0 0 0
415170000 -0.035644212836217555 0.08706193389577942 0.23025495079262742 -0.9380235792317844 0 0 0 0
420160000 -0.029255762896148844 0.08991308716526711 0.21578584250310118 -0.9397048056574686 0 0 0 0
425150000 -0.022622420631392606 0.09208386563490366 0.20022863583164463 -0.9434264404357389 0 0 0 0
430140000 -0.01595625544576172 0.0936292981660333 0.1845436571844786 -0.9460245883859095 0 0 0 0
435130000 -0.009147209088623744 0.09440501640086686 0.17187150195375459 -0.9469471478023127 0 0 0 0
440120000 -0.0021112343872163545 0.09443408367771543 0.15295618534813038 -0.9472829479430338 0 0 0 0
445110000 0.0049943145477719005 0.09358552163815849 0.13861169081989866 -0.9495191508009109 0 0 0 0
450100000 0.011798803384995697 0.09213330388153854 0.12521743293703086 -0.9497087643563268 0 0 0 0
455090000 0.018773426013499638 0.08926259974513222 0.10569824089405509 -0.9486619080416481 0 0 0 0
460080000 0.024658741890076292 0.08585983968667457 0.09101555882405234 -0.9457287562059555 0 0 0 0
465070000 0.030888016493391377 0.08183158948162148 0.08129250177212999 -0.9422893479820474 0 0 0 0
470060000 0.03569152336376399 0.07720286296911759 0.06542314713278367 -0.9461973911674222 0 0 0 0
475050000 0.04061963853765093 0.07160222134078012 0.048187234770716965 -0.9457992525011216 0 0 0 0
480040000 0.0447966679968145 0.06571462389120221 0.035229315083078715 -0.9471738638343139 0 0 0 0
485030000 0.04784016568075107 0.05893025915417968 0.017397602223620853 -0.9456675749978268 0 0 0 0
490020000 0.05033716643594474 0.05222795000481538 0.0009838124080858055 -0.9451529237718826 0 0 0 0
495010000 0.05247001344810972 0.044943158501037646 -0.014766582001144694 -0.9430662306605172 0 0 0 0
500000000 0.052729443526802394 0.03742894556962296 -0.03242998723005221 -0.9426806270417849 0 0 0 0
