#Digilent WaveForms Impedance Analyzer Trace#Trace: Trace
#Start: 1000 Hz
#Stop: 2.5e+07 Hz
#Steps: 1001
#Resistor: 100 O
#Average: 1
#ProbeResistance: 1.04e+06 O
#ProbeCapacitance: 4.3e-11 F
#Compensation: Open Short
#Wavegen: Wavegen1
#Amplitude: 1 V
#Offset: 0 V
#Amplification: 1 X
#Settle: 0.01 s
#MinPeriods: 16
#Scale: Logarithmic

#C1_100_compensated
Frequency (Hz),Gain (X),Phase (rad),Real (Ohm),Imag (Ohm),VReal (V),VImag (V),IReal (A),IImag (A),Resistor (Ohm),Amplitude (V),Offset (V)
1000,13.88190950678307,-1.491142312524912,18.10510408616307,-1483.446459875408,0.008767106194692623,-0.7062562701625721,5.909967778730126e-06,-0.0004760923054306928,100,1,0
1010.178078950409,13.7275169877278,-1.49028860657838,17.73772578413176,-1467.098225274983,0.008871859161359168,-0.7062818600102777,6.043681435736446e-06,-0.0004811328142282617,100,1,0
1020.459751191941,13.57247557559424,-1.489390545672292,17.958988052572,-1451.538986439011,0.008993524414857752,-0.7061745365918787,6.192182209043171e-06,-0.0004862122122823748,100,1,0
1030.846071105288,13.42880178131185,-1.488511322509406,19.01698344075217,-1437.52690536094,0.009130416800412927,-0.7061363594595716,6.34947356441798e-06,-0.0004910612785015609,100,1,0
1041.338103802716,13.28302705921275,-1.488084811092853,18.05685402412393,-1423.324549740704,0.008930347056881397,-0.7061066000296932,6.273968700753948e-06,-0.0004960715053698184,100,1,0
1051.936925237291,13.14785192501857,-1.487127300204961,18.43578982776993,-1409.230696758807,0.009132295044003338,-0.7060372543004849,6.477639529827368e-06,-0.0005008001609618086,100,1,0
1062.643622313207,12.99429699123009,-1.486709489206588,17.63538205581717,-1394.422825877877,0.00887840892322977,-0.7060628738442749,6.366909187640616e-06,-0.0005063337628850407,100,1,0
1073.45929299726,12.84962958996482,-1.485785502605149,16.69802125462245,-1379.529469889947,0.009001400787959668,-0.7059692037308402,6.52303307634274e-06,-0.0005115937591597271,100,1,0
1084.385046431436,12.71798094730153,-1.484976635407623,17.9400406825582,-1365.519469995078,0.009080893805875659,-0.7058764814057987,6.64424264482081e-06,-0.0005164705941939181,100,1,0
1095.42200304666,12.58375470389039,-1.484353503814194,17.48740495081882,-1352.601498493994,0.009011033011943554,-0.7058882052487576,6.658643317773148e-06,-0.0005216114262088071,100,1,0
1106.571294677684,12.44487113018224,-1.483735303903113,16.6254190979867,-1339.253724534516,0.008908420814118892,-0.7058366771134256,6.651188060557829e-06,-0.000526990425966419,100,1,0
1117.83406467917,12.31127804135514,-1.483226884907622,15.86264313614753,-1325.66478770476,0.008738430628194627,-0.7058085142667774,6.590061516906911e-06,-0.0005322833957355225,100,1,0
1129.211468042934,12.17977109802512,-1.481660096461462,17.82617925450818,-1312.309650209233,0.009314186111869221,-0.7057922545475314,7.095264165844849e-06,-0.0005376511089724142,100,1,0
1140.704671516382,12.03858477906888,-1.481413138282428,16.32589795777957,-1298.457778860218,0.008905829719992564,-0.7057391209089215,6.85785492971118e-06,-0.0005434481302231009,100,1,0
1152.314853722176,11.91556568924239,-1.480777090487483,16.12222966723244,-1286.165859590722,0.008837008671233835,-0.7056928954921433,6.87007666202833e-06,-0.0005486205199347014,100,1,0
1164.043205279092,11.78113842853282,-1.48001695627451,15.78704359903186,-1272.443684967598,0.008794698094477036,-0.7055074965838214,6.909575451127222e-06,-0.0005542836407361252,100,1,0
1175.890928924109,11.66191480491258,-1.479071048738912,15.26073239767531,-1260.549739840499,0.008941074568931916,-0.705522189349046,7.091314660893331e-06,-0.0005595613599176267,100,1,0
1187.859239635769,11.53640387920836,-1.47841385600688,15.50309942568119,-1247.615473470998,0.008845673070649589,-0.7055716434747369,7.086330910524016e-06,-0.0005652384060331416,100,1,0
1199.949364758755,11.41232343789013,-1.477553700969199,15.84670899885866,-1234.775794045273,0.008886575787804772,-0.7054405020259664,7.190835053874579e-06,-0.000570828000741588,100,1,0
1212.162544129765,11.28742729603123,-1.476483867676642,15.89632642105761,-1222.839579006054,0.009060927080690706,-0.7053614698038801,7.407164027548216e-06,-0.0005766218024956848,100,1,0
1224.500030204646,11.16137865960049,-1.475929689416311,15.03534179358473,-1210.622489903111,0.00885487622563004,-0.7053805092341776,7.314159354254782e-06,-0.0005826468172407537,100,1,0
1236.963088186847,11.04342953733804,-1.474376421189671,16.51259289635165,-1198.114488923123,0.009379767087705307,-0.7052709745748299,7.824689994264559e-06,-0.0005883436855521061,100,1,0
1249.552996157157,10.91818558116949,-1.474402153994846,14.70120698902077,-1186.048383291949,0.008743312916581565,-0.7052694263897789,7.370468488622773e-06,-0.0005945304866461633,100,1,0
1262.271045204765,10.80030034587006,-1.473178668932766,15.80981854889419,-1174.122640851899,0.009011116649159689,-0.7050989248032482,7.672985548131715e-06,-0.0006003932776214866,100,1,0
1275.118539559674,10.68013277193081,-1.472206754527684,14.90933200684913,-1161.99370721116,0.009079777490265289,-0.7051157855991379,7.811730607164932e-06,-0.00060664202067346,100,1,0
1288.096796726446,10.5668034919496,-1.471658961122175,14.4348972957563,-1150.67692633854,0.008871791515156562,-0.7050881923982073,7.708023434711475e-06,-0.000612597388166625,100,1,0
1301.207147619296,10.44818384077738,-1.470568227375931,13.85442146570203,-1138.818228802973,0.009005951021658864,-0.7050007982103391,7.906501590688867e-06,-0.0006189340713803084,100,1,0
1314.450936698602,10.33642576923992,-1.469340664046992,14.8427150426533,-1127.138585704208,0.009261349874061591,-0.7049265748615379,8.211857752108542e-06,-0.0006250446033419712,100,1,0
1327.829522108759,10.22315189847126,-1.468710351377253,14.39301521420998,-1115.819978225981,0.009074916241513135,-0.7048889677371478,8.128314610517596e-06,-0.0006313622233823712,100,1,0
1341.344275817469,10.11063549420133,-1.468046222453786,14.01617032306821,-1105.130821539035,0.008903863889896642,-0.704856117706424,8.056442602961381e-06,-0.0006377717500928593,100,1,0
1354.996583756418,9.99830390606412,-1.466894686042107,14.12951122064331,-1093.608178771389,0.009064021383226536,-0.7047656022503128,8.286087252077803e-06,-0.000644277967317688,100,1,0
1368.787845963426,9.884186320559444,-1.465996689273596,13.67965275871835,-1082.656772938036,0.00902094903176771,-0.7046663666003024,8.333966169246977e-06,-0.0006510030861688975,100,1,0
1382.719476726005,9.776271855574343,-1.465267271366424,13.57318485949046,-1070.898879489911,0.00888323877260665,-0.7046298641756096,8.289584836134959e-06,-0.0006575404744461228,100,1,0
1396.79290472639,9.670938359670306,-1.463881341740384,13.44572259834387,-1060.819682248876,0.009210382567537544,-0.7045027879145194,8.680937255190689e-06,-0.0006640054800273016,100,1,0
1411.009573188066,9.563439520000419,-1.462625110777445,14.05936160589112,-1049.979203461397,0.009420709235166115,-0.704488480897312,8.970713622299676e-06,-0.0006708374342717186,100,1,0
1425.37094002376,9.455686397527311,-1.462387888723585,12.82972841857666,-1039.041898002066,0.008895601686862398,-0.7044001849664947,8.558288488127035e-06,-0.0006776899647987304,100,1,0
1439.878477984941,9.350901003840221,-1.461362614527612,13.10605435355625,-1028.464297810864,0.008931031035093483,-0.7042661583852037,8.680325043639812e-06,-0.0006844964649655476,100,1,0
1454.533674812867,9.247873490631083,-1.460768516619784,12.33025004471893,-1018.37093298705,0.008661905540676612,-0.704271796325827,8.503989822965889e-06,-0.0006914321751064611,100,1,0
1469.33803339114,9.14735161922952,-1.459209329075539,12.89009583478613,-1008.430259671164,0.009075551519988442,-0.7041948564645143,8.999854386495089e-06,-0.0006983213255900851,100,1,0
1484.293071899837,9.048558232154775,-1.458380822802442,12.00466082760184,-998.3199761420982,0.008971936489722519,-0.7040927270789624,8.985430316283555e-06,-0.000705151685215032,100,1,0
1499.400323971179,8.947925731087926,-1.457377510983145,12.44812093380419,-987.8108532717757,0.008965508624082982,-0.7040521547922747,9.070856576872478e-06,-0.0007123250209813901,100,1,0
1514.661338846826,8.853258393551098,-1.456539947568209,11.79521184465079,-978.6932478404088,0.00887045412334338,-0.7039575105984225,9.061794421704461e-06,-0.0007191422393889094,100,1,0
1530.077681536745,8.753676400467276,-1.455373046642577,12.52977224880114,-968.442555982346,0.008957427337326306,-0.7038462018913119,9.245298537755776e-06,-0.0007264662068800046,100,1,0
1545.650932979684,8.653756599898857,-1.454136946878664,12.40114981608828,-958.424992249116,0.00907489666097016,-0.7036994017470523,9.464833189778165e-06,-0.0007339364515221382,100,1,0
1561.382690205325,8.564752262864946,-1.453171181498108,12.27699280325078,-949.4276567613208,0.009071866153761252,-0.7036467046517958,9.550803418885958e-06,-0.0007407948087604771,100,1,0
1577.27456649804,8.470556511903768,-1.452490262954196,12.01876779053339,-940.5030471502644,0.008814376769718184,-0.7036059858405285,9.372817730991489e-06,-0.0007481834316833614,100,1,0
1593.328191562329,8.375099168508592,-1.450807803862072,12.10496676149608,-930.549317074332,0.009237377852859835,-0.7035495320493577,9.924554428437881e-06,-0.0007558871938711632,100,1,0
1609.545211689963,8.280170895637321,-1.449992775801527,11.92316537028677,-921.001364295429,0.009037452305675276,-0.7034716655194675,9.810082085165048e-06,-0.0007636128579068719,100,1,0
1625.927289928796,8.189889974294696,-1.448748995355613,12.06203548851163,-912.250534063839,0.0091621675220041,-0.7033630325828879,1.004466414824714e-05,-0.0007711107027480259,100,1,0
1642.47610625332,8.100906701821536,-1.447875157641918,11.6339690447716,-903.2733959447,0.009022583658037949,-0.7032688114473975,9.989450074073238e-06,-0.0007786315923319813,100,1,0
1659.193357736926,8.00818670648346,-1.446926627906059,11.17497024080985,-893.6116770360617,0.008887700967157892,-0.7031471995625213,9.942589754539733e-06,-0.0007866043387527745,100,1,0
1676.080758725967,7.916906853078103,-1.445732429325399,11.05427094954518,-884.5236684819128,0.008922787884714562,-0.7030944451595922,1.008552272920546e-05,-0.0007947151830856291,100,1,0
1693.140041015545,7.830420214955636,-1.444586984785868,11.06159149937136,-875.8470803721236,0.008949604496651539,-0.7029820905156927,1.021638273073915e-05,-0.0008024861983845793,100,1,0
1710.3729540271,7.742242587266194,-1.443147902796188,11.33579768175449,-866.8847788931253,0.009151549074326977,-0.7028372331433483,1.055418196849979e-05,-0.0008105591733798725,100,1,0
1727.781264987832,7.656293992262009,-1.44269025420352,10.37648987594531,-858.312636324096,0.008668351776455564,-0.7027923976194416,1.009686811834574e-05,-0.0008186103121256826,100,1,0
1745.366759111919,7.571209463879585,-1.441248443862719,10.69618169556308,-849.6122296687823,0.008869689686870996,-0.7027197161096496,1.043585483009348e-05,-0.0008268024251648736,100,1,0
1763.13123978358,7.484024096125721,-1.439897217484726,10.62823676387269,-840.5914283460152,0.008969528613237764,-0.7025978775285797,1.066364053198245e-05,-0.0008353004408103562,100,1,0
1781.076528742029,7.402199500065423,-1.438861162858485,10.49555720142985,-832.2058894301207,0.00888457368681172,-0.7025497642416769,1.066698075610609e-05,-0.0008434940245357047,100,1,0
1799.204466268286,7.318851443869226,-1.437547429875538,10.2783819336025,-824.3306337718399,0.008961728223233522,-0.7023773365597633,1.086930513358434e-05,-0.0008518840785854298,100,1,0
1817.516911373893,7.238559628475373,-1.43639622392082,10.5334843775746,-815.9691773480807,0.008939735773565395,-0.7022457721308667,1.095000313576414e-05,-0.0008601589131580446,100,1,0
1836.015741991564,7.157540803969754,-1.435252905583666,10.10526672976345,-807.7923260923864,0.008888536266992044,-0.7021564552498706,1.099713776104584e-05,-0.0008687269800389232,100,1,0
1854.702855167748,7.076321923638451,-1.433818488409252,10.05484687626863,-799.6680459633271,0.009021652620427341,-0.7019906890511394,1.127627082050931e-05,-0.000877426504462508,100,1,0
1873.580167257198,6.998655974538349,-1.432755232013141,9.98317421634925,-791.9743551657032,0.008916812109144238,-0.7019485619194914,1.125512548135558e-05,-0.0008860250781508502,100,1,0
1892.649614119459,6.917852456833748,-1.43144276214159,9.942018940703083,-783.8079856274112,0.008933970100509872,-0.7018318321941238,1.13939485795009e-05,-0.0008950819979821034,100,1,0
1911.913151317432,6.839928005070468,-1.430047142246373,9.765570016561615,-776.0161557002076,0.009023483038095921,-0.7016755737131308,1.162476061746823e-05,-0.0009039536663506633,100,1,0
1931.372754317866,6.763710239093055,-1.428807927215594,9.801156884732441,-768.2809451994872,0.009005039199374591,-0.7015145765927632,1.171695872044675e-05,-0.0009127797396262245,100,1,0
1951.030418693986,6.686582393917364,-1.427378011892373,9.786526701430352,-760.4311043136626,0.009092565498478384,-0.701401424863934,1.195199153739063e-05,-0.0009219778395536844,100,1,0
1970.888160330103,6.610069164948731,-1.426252795793913,9.589384443499386,-752.8468480773554,0.008954795992221272,-0.7012894511086822,1.189121288006059e-05,-0.0009312531699123187,100,1,0
1990.948015628369,6.532818615609674,-1.425183386437157,9.127761710433585,-744.9486944822712,0.008749821522383315,-0.7011897567206161,1.174005672248743e-05,-0.0009408200494225538,100,1,0
2011.212041717595,6.460229908966984,-1.423506970262796,9.307648474813726,-737.7764682573112,0.00900928056693516,-0.7009796486340106,1.220876540573936e-05,-0.0009499200319922543,100,1,0
2031.682316664214,6.388906651193335,-1.422324766078303,9.158929507415163,-730.317026839264,0.008922498431338067,-0.7009749287807461,1.221004655715602e-05,-0.0009592533505806948,100,1,0
2052.360939685372,6.311722859248638,-1.420716418682973,9.043348366561588,-722.7068094697336,0.009035799991547707,-0.7006980130673496,1.249861899945244e-05,-0.0009692287907207283,100,1,0
2073.250031364225,6.240507905474243,-1.419601090020917,8.720797350756188,-715.6453063832498,0.008865405429970122,-0.7006938501176939,1.23856722278107e-05,-0.0009789247009800569,100,1,0
2094.351733867389,6.169649136514964,-1.418201302927827,8.821991424893511,-708.3927271650188,0.008877916481774457,-0.7004857209134944,1.252841421152512e-05,-0.000988517438621923,100,1,0
2115.668211164621,6.097683462546696,-1.41656830743776,8.704228331630279,-701.1077983490877,0.009019369285572587,-0.7003073437354345,1.286029751678276e-05,-0.0009985355415075225,100,1,0
2137.201649250725,6.030279563433503,-1.415457142936998,8.706846815716204,-694.5123781088124,0.00883931946614757,-0.7001233427427491,1.27266590930243e-05,-0.001008022296318125,100,1,0
2158.954256369743,5.960528100052057,-1.413764417620927,8.716017065900775,-687.1230645187942,0.009014357810399521,-0.6999524473757422,1.311218708567256e-05,-0.001018143237056434,100,1,0
2180.928263241401,5.892460953100723,-1.412425965434274,8.593214174995177,-680.4024092221838,0.00894646364500414,-0.6998673286154125,1.314475787304367e-05,-0.001028293071200339,100,1,0
2203.12592328985,5.823940887775097,-1.411230953339024,8.494035194370211,-673.4800605450844,0.008749511883044929,-0.6996761332060922,1.298699889666102e-05,-0.001038537154006961,100,1,0
2225.549512874787,5.757093444121735,-1.409606492285896,8.3496889766759,-666.8315778777741,0.008858824679346367,-0.6995131539013753,1.328280118595422e-05,-0.0010488405049819,100,1,0
2248.201331524871,5.69079905818665,-1.408115780727455,8.299549930330475,-660.0340282408862,0.008862714761810333,-0.6993783033216791,1.342356887670354e-05,-0.001059286356135979,100,1,0
2271.08370217355,5.625040181488146,-1.406706670612494,8.052005793786584,-653.5056156435791,0.008796668138602597,-0.6992140488684223,1.345892240982269e-05,-0.001069799097033233,100,1,0
2294.19897139726,5.561689908706794,-1.404857827410363,8.366364121810626,-647.0298651964218,0.009056187945096415,-0.6989840139741801,1.399400270007675e-05,-0.001080099511865975,100,1,0
2317.549509656089,5.496129047873231,-1.403603951908323,8.030703315808166,-640.2174397047919,0.0088429936473773,-0.6988773146844469,1.380543626205036e-05,-0.001091067867693266,100,1,0
2341.137711536855,5.432484981410643,-1.401942752280575,8.025109394346408,-633.919578201075,0.008924373631272867,-0.698686026294785,1.407427852185998e-05,-0.001101870242068951,100,1,0
2364.965995998657,5.367807593634376,-1.400504888125865,7.847990195789835,-627.4626590965474,0.008810190872559602,-0.6985513776271223,1.403881229913927e-05,-0.001113123633036928,100,1,0
2389.036806620963,5.307487326752956,-1.398938251399795,7.885822805264537,-621.2211237104899,0.0088398079713827,-0.6983530369794139,1.422455600656276e-05,-0.001123753131179506,100,1,0
2413.35261185419,5.245820386568725,-1.397151591892516,7.859979442300609,-615.12587689298,0.008978048553489399,-0.6981520331650544,1.459415688729457e-05,-0.001134872488435636,100,1,0
2437.915905272817,5.184434925557608,-1.395773830547991,7.565126468399196,-608.7925040167979,0.008813260808745792,-0.6979730154205814,1.4472042230336e-05,-0.001146124592702152,100,1,0
2462.729205831142,5.125663326990582,-1.394220983914724,7.378777234470063,-602.7558410990961,0.008796043917636127,-0.6976772684390309,1.458637545849337e-05,-0.001156949951773621,100,1,0
2487.79505812157,5.065381304358291,-1.392453252274022,7.544073023944596,-596.7446956232725,0.008880605303179231,-0.6975573918800229,1.487765867957083e-05,-0.001168616375967898,100,1,0
2513.116032635573,5.007564937006562,-1.390843127185521,7.379399488276695,-590.8418424969477,0.008878592958271861,-0.6973263335387236,1.502181558318075e-05,-0.001179816175034246,100,1,0
2538.694726027277,4.949994623647746,-1.389068677403049,7.617723740618713,-585.0410135699984,0.008975533232610021,-0.6972016257237759,1.533771117288362e-05,-0.001191402993837124,100,1,0
2564.533761379772,4.892372172500079,-1.387441488416221,7.442159662193236,-579.1977369981237,0.008943758114929845,-0.6969137512520442,1.543751596251579e-05,-0.001202919066146343,100,1,0
2590.635788474085,4.833617083068498,-1.385829549071643,7.129141680148742,-573.2338616402939,0.00885623070363451,-0.6967673831958421,1.544506104502723e-05,-0.001215146164070365,100,1,0
2617.003484060932,4.777991426528225,-1.38406555000806,7.159034958892939,-567.5668826135558,0.008914427195162054,-0.6964680286219234,1.570141248478184e-05,-0.001226722879714636,100,1,0
2643.639552135202,4.721401817728005,-1.382323713897816,7.086630307592643,-561.7844411823762,0.008914699321193275,-0.696289077299126,1.586244053056092e-05,-0.001238947460009018,100,1,0
2670.546724213258,4.665190672287277,-1.380527338442132,7.178517964863721,-556.0930467507851,0.008935285365155112,-0.6959944812998886,1.606234642039098e-05,-0.001251141290787983,100,1,0
2697.72775961306,4.609546725560308,-1.378972476557875,6.719595406250251,-550.4544957058351,0.008777207915393947,-0.6958615889083207,1.593953144533187e-05,-0.001263694307451637,100,1,0
2725.185445737111,4.555333681774329,-1.377048792764847,6.888253284927027,-544.9866311540436,0.008882975344785516,-0.6956462397649361,1.629511648451536e-05,-0.001276108068411896,100,1,0
2752.922598358332,4.501750347256497,-1.375269706805054,6.75778173803802,-539.5467704403145,0.008876780603315395,-0.6953421799137052,1.644811378669107e-05,-0.001288425140487847,100,1,0
2780.942061908791,4.448132870485741,-1.373564188567333,6.786386131219755,-534.1481972114252,0.008794729669075208,-0.6951227712808478,1.646206397840611e-05,-0.001301137836437394,100,1,0
2809.246709771412,4.395696230753335,-1.371612762029724,6.602838246633016,-528.754139931817,0.008886959735234902,-0.6948871503427532,1.680291614893078e-05,-0.001313849828067226,100,1,0
2837.839444574645,4.343964687297501,-1.369867089011094,6.557680175269858,-523.6197500361178,0.008827401179040708,-0.6945976892201291,1.685785816471357e-05,-0.001326486594289263,100,1,0
2866.723198490111,4.291458524206345,-1.368029197593312,6.473869212239728,-518.1629396149804,0.008787315321000862,-0.6943196313715133,1.695420975412953e-05,-0.001339617418593073,100,1,0
