#Digilent WaveForms Impedance Analyzer Trace#Trace: Trace
#Start: 1000 Hz
#Stop: 2.5e+07 Hz
#Steps: 1001
#Resistor: 100 O
#Average: 1
#ProbeResistance: 1.04e+06 O
#ProbeCapacitance: 4.3e-11 F
#Compensation: Open Short
#Wavegen: Wavegen1
#Amplitude: 1 V
#Offset: 0 V
#Amplification: 1 X
#Settle: 0.01 s
#MinPeriods: 16
#Scale: Logarithmic

#L1_100_compensated
Frequency (Hz),Gain (X),Phase (rad),Real (Ohm),Imag (Ohm),VReal (V),VImag (V),IReal (A),IImag (A),Resistor (Ohm),Amplitude (V),Offset (V)
1000,0.00301192257053895,0.0001138200018350188,0.210994350680557,0.005936113716075205,0.002125202717166286,8.055308528178296e-05,0.00705159731337985,0.000267281758662006,100,1,0
1010.178078950409,0.00299764672833569,9.675412359588798e-05,0.2091229002361405,0.00603644116181945,0.002115150944296657,6.847483468587373e-05,0.007053032615286459,0.0002283313366679894,100,1,0
1020.459751191941,0.003006865201412134,0.0001134824181101557,0.2033898727241673,0.005456116105799736,0.002121589328001688,8.031206300502036e-05,0.007051461011933509,0.0002669307266931152,100,1,0
1030.846071105288,0.003064271249394679,0.000105393409919774,0.2126331327238907,0.001634669613958613,0.002162028923672597,7.458943187325814e-05,0.007052101233004923,0.0002432956463824792,100,1,0
1041.338103802716,0.002984777879638134,0.0001468773353892061,0.207379373607207,0.0103364143138422,0.002106190628280768,0.0001039528398242822,0.007048564240174016,0.0003478879165121312,100,1,0
1051.936925237291,0.002992715404366075,0.0001311937907124694,0.2064687603293796,0.005541371681966232,0.002111587582613636,9.284445927946741e-05,0.007049645683659062,0.0003099660876017364,100,1,0
1062.643622313207,0.0030033058693959,0.0001261011025173175,0.2035292168849585,0.004616594170665783,0.00211914301221898,8.924483722195646e-05,0.007050482346333251,0.000296921512944955,100,1,0
1073.45929299726,0.003015873848579043,0.0001382682043846728,0.2049016433510429,0.0074084071039102,0.002127909014100343,9.785237959556586e-05,0.007048948165478174,0.0003241474833121375,100,1,0
1084.385046431436,0.003012700026252757,0.0001279007606009158,0.2094316223249464,0.006832595973436772,0.002125786028541293,9.051996925732493e-05,0.00705039125437958,0.0003002189265664163,100,1,0
1095.42200304666,0.003024316896726331,0.0001294323288189014,0.2132510690521042,0.008620061173866541,0.00213386509888932,9.159992054877794e-05,0.007049898387985471,0.0003026293145487739,100,1,0
1106.571294677684,0.00300694492176401,0.0001140992622281622,0.2103715396153117,0.002921964114549292,0.002121876111983363,8.075738893055505e-05,0.00705217264683613,0.0002684016498558106,100,1,0
1117.83406467917,0.00300673554373887,0.0001475223701297157,0.2117322496535912,0.00852993411273623,0.002121698986769657,0.0001044123433863346,0.007048660968744817,0.0003468763543140337,100,1,0
1129.211468042934,0.002988316347243281,0.0001191811457328384,0.2045173880384204,0.006175452957927807,0.002108563290705161,8.434600846283255e-05,0.00705108055894526,0.0002820548489668608,100,1,0
1140.704671516382,0.002990295980115132,0.0001441919671827385,0.2067820064738138,0.006542216904697831,0.002109870905871139,0.0001020424829017565,0.00704819060342003,0.0003408809833513746,100,1,0
1152.314853722176,0.003047061633853154,0.0001324275404135378,0.2128650956588949,0.006674541988528317,0.002149901924202895,9.372129584087096e-05,0.00704965965600777,0.000307317850530843,100,1,0
1164.043205279092,0.003020768961439213,0.0001316252315113342,0.2093504734678088,0.005100147970998412,0.002131490507581141,9.315715449166515e-05,0.007050087587312812,0.000308125274879306,100,1,0
1175.890928924109,0.00302397705467139,0.0001588566066707611,0.2085793971851158,0.01192141853223294,0.002133625356319432,0.0001124237543810496,0.007046625610916477,0.0003712967248680766,100,1,0
1187.859239635769,0.003003946535678814,0.0001644672254519364,0.2055662860895975,0.01038421250444376,0.002119551814877666,0.0001163953970484254,0.007045984747903665,0.0003869309476525969,100,1,0
1199.949364758755,0.003012605744940444,0.0001508372550593773,0.2102777520849524,0.008602374585469082,0.002125700004345483,0.0001067520757472669,0.007047841278787796,0.0003539406710776807,100,1,0
1212.162544129765,0.002980787540850738,0.0001558388784379527,0.2061867680965309,0.008443444181345022,0.002103309930263729,0.0001102916034516327,0.007047247442594588,0.0003695376554736837,100,1,0
1224.500030204646,0.00306711239897961,0.00017075308998038,0.2147435349691275,0.00728884395706999,0.002164137237081844,0.0001208525274589494,0.007045678462837002,0.0003934538139758164,100,1,0
1236.963088186847,0.002965559745757407,0.0001680013555191984,0.2036907101345146,0.007556940839447327,0.002092496334984352,0.0001188937170569039,0.007045339849577235,0.0004003097298861597,100,1,0
1249.552996157157,0.003022332109172465,0.0001549063490100533,0.2070719457794062,0.008692974535492436,0.002132439658355679,0.0001096266426712739,0.007047010413547452,0.0003622799311012706,100,1,0
1262.271045204765,0.003019715980730586,0.0001434986770239011,0.2047661576207091,0.006638766108175213,0.002130629356350896,0.0001015548478807545,0.007048428173722024,0.0003359580345812515,100,1,0
1275.118539559674,0.002983789940266934,0.0001422569664928097,0.2003343761258919,0.006677859123078285,0.002105589818496497,0.0001006872454455593,0.007049410254505381,0.0003370959026809176,100,1,0
1288.096796726446,0.003060987348793009,0.0001123325017076127,0.2089055716690263,0.00295086788403401,0.002159702962318693,7.949982209014857e-05,0.007051493430081836,0.0002595692476892731,100,1,0
1301.207147619296,0.003010040918551171,0.0001374998243037773,0.210068745219964,0.00704225211009764,0.002123867022076167,9.731139819570074e-05,0.00704924604984026,0.0003229825512639253,100,1,0
1314.450936698602,0.003037008869964497,0.0001536126815762096,0.2088570098024102,0.009756646782652265,0.00214291424665071,0.0001087187499963601,0.007047644257741158,0.0003575556396240314,100,1,0
1327.829522108759,0.00303938877293497,0.0001438260867248076,0.2071985286961747,0.008637549412578775,0.002144673855731587,0.0001017963334414768,0.007049033614591908,0.0003345803719075978,100,1,0
1341.344275817469,0.003023889165733706,0.0001571607657666618,0.2088987983199801,0.009289030450448767,0.0021334754158094,0.0001112189944311207,0.007046541190770979,0.0003673392342126874,100,1,0
1354.996583756418,0.003019588259102424,0.0001578321807871319,0.2071818165242069,0.01048467740504259,0.002130698015286039,0.0001117071418712855,0.007047282580194695,0.0003694713137878268,100,1,0
1368.787845963426,0.003018892550546104,0.0001359593160397132,0.2069348090409426,0.007382659312776417,0.002130259348024859,9.622861625429801e-05,0.007049937554037503,0.0003184615695423402,100,1,0
1382.719476726005,0.003080449764590876,0.0001582303892307402,0.2113842606418204,0.005837019124961369,0.002173574140912816,0.0001119921955295352,0.007047387365659658,0.0003631127040809738,100,1,0
1396.79290472639,0.003036355521625289,0.0001684855450065914,0.2053124863483413,0.008677910087248905,0.002142608523268185,0.0001192536177862867,0.007046319887585994,0.0003921851003338479,100,1,0
1411.009573188066,0.002947767930566059,0.0001888884883922692,0.1936759602789684,0.009446423892301263,0.002079957052107975,0.0001336741768791235,0.007042233567757328,0.0004525885640794598,100,1,0
1425.37094002376,0.003027668811723006,0.0001250787344007076,0.2064647066724808,0.004045509437102864,0.002136336588056866,8.852355109998218e-05,0.007050690724114008,0.0002921600388700841,100,1,0
1439.878477984941,0.003011355767188251,0.0001732781216170487,0.2059784657486718,0.005847714206933533,0.002124970584501955,0.0001226429551572959,0.007045513657236387,0.0004066327420372642,100,1,0
1454.533674812867,0.003013165667813622,0.000126947683001033,0.2075240809494582,0.002975128843046328,0.002126082387500459,8.984411922264971e-05,0.007050380855723849,0.0002979354242764987,100,1,0
1469.33803339114,0.003023383462229523,0.0001627899547358425,0.2055519559099846,0.01249127082672001,0.00213332541558057,0.0001152137843008975,0.007046526745791135,0.0003805593870633861,100,1,0
1484.293071899837,0.00303344162147634,0.000180958479736204,0.205113187400024,0.01418857181405059,0.002140707778128275,0.0001280909499216455,0.007045142556015052,0.0004215516996544043,100,1,0
1499.400323971179,0.00302772394798656,0.0001775436169171307,0.2046716218546362,0.01150150854203247,0.002136503542577112,0.0001256630530446137,0.007045007353730262,0.0004143672664935668,100,1,0
1514.661338846826,0.003022745872327759,0.0001626242334513694,0.2032997213744436,0.01309403388547299,0.002132967630854527,0.0001151013920184815,0.007046847531254824,0.0003802692307451847,100,1,0
1530.077681536745,0.003035890239279526,0.0001668590926273694,0.2075354944989928,0.01119245640534123,0.002142284823431994,0.0001181026089149271,0.00704654027953882,0.0003884706560654364,100,1,0
1545.650932979684,0.003035412012594385,0.0001475650681097562,0.2056673202893124,0.01066247369708639,0.002141901330437611,0.0001044439291826314,0.007048706398269652,0.0003437107869668416,100,1,0
1561.382690205325,0.002998703289291749,0.0001677883609472047,0.2038272965845848,0.01173308807271591,0.002116053362913731,0.0001187564934169647,0.007046185294272472,0.0003954438352923981,100,1,0
1577.27456649804,0.003041458385865559,0.0001858529095130207,0.2049684877996665,0.008162475949322385,0.002146269315330741,0.0001315506678727543,0.007044210398533909,0.0004317587620268131,100,1,0
1593.328191562329,0.003014168062276168,0.0002223701045207527,0.2008564137858919,0.01345105982486547,0.002126819448986561,0.0001573802376441402,0.007037569573160919,0.0005207655837400771,100,1,0
1609.545211689963,0.003035299041743489,0.0001608546938047795,0.2113365702488781,0.008158235855738041,0.002141656335698185,0.0001138413684790442,0.007046593508525618,0.0003745670277507847,100,1,0
1625.927289928796,0.003049293517272345,0.0001672710858828808,0.20752207003371,0.006612938728606222,0.002151768119579831,0.0001183971879132477,0.007046663972786445,0.0003877300676387107,100,1,0
1642.47610625332,0.003002390966285962,0.0002075103847825055,0.2012535114564005,0.01401230374703615,0.002118682071855238,0.0001468735092305252,0.007040481891759597,0.0004880676982418683,100,1,0
1659.193357736926,0.003042463283025487,0.0002105516805834817,0.2054650886324678,0.01551090154741092,0.002147081575870649,0.0001490405351352153,0.00704083747334254,0.000488742578120967,100,1,0
1676.080758725967,0.003013417917364869,0.0002000491277148742,0.2021788585929969,0.01321507413476949,0.002126275114746634,0.0001415814594200842,0.00704115792906655,0.0004688468621443324,100,1,0
1693.140041015545,0.003049666254174577,0.000217108000030164,0.2058730746179951,0.01399432286363729,0.002152010936500622,0.0001536716617079299,0.007039354367523948,0.0005026690453383139,100,1,0
1710.3729540271,0.003029925422175062,0.0002041850963423464,0.2094578253689756,0.01292375418011548,0.002138229633793429,0.0001445317725267147,0.007041696135545407,0.0004759773262796423,100,1,0
1727.781264987832,0.003056613390013396,0.0001781002977274682,0.2069455417960875,0.009710448292007907,0.002157146971606184,0.0001260757538165373,0.007046001884475335,0.0004118078233290386,100,1,0
1745.366759111919,0.003066278381003817,0.0001968217412728901,0.2065865080512178,0.01059759349308383,0.002163710658868019,0.0001393134516522075,0.007042612073354192,0.0004534481505488248,100,1,0
1763.13123978358,0.003067609966277418,0.0001930930305081013,0.2074495076711572,0.01226852044183145,0.00216472840362654,0.0001366792936529156,0.007043422329468151,0.0004447162920198669,100,1,0
1781.076528742029,0.003037849199160503,0.0002394275261581313,0.200738135463273,0.01604781743329227,0.002143773526687479,0.0001694759970712903,0.007035673532253913,0.0005562051084702311,100,1,0
1799.204466268286,0.003043128436447828,0.0001897048996903905,0.2003561674614892,0.007031113945815095,0.002147376055231554,0.0001342729566322935,0.007043439643762614,0.0004404181854990154,100,1,0
1817.516911373893,0.003028416380399745,0.0001929552534272183,0.2025697833708185,0.01018770495704433,0.002137088390369374,0.000136577581413045,0.007043138889847506,0.0004501146885016164,100,1,0
1836.015741991564,0.003037004394292886,0.0002037480746035492,0.2053291399915534,0.01239843500183017,0.002143233534648965,0.0001442239941390943,0.00704186540403706,0.0004738662111903152,100,1,0
1854.702855167748,0.003046482292899277,0.0001822278600394286,0.2055716198989808,0.007300784061245127,0.002149858539169395,0.0001289880365810489,0.00704490389465236,0.00042268284387887,100,1,0
1873.580167257198,0.003008211303045849,0.0001892411999396826,0.2045322515413852,0.01064240776511897,0.002122938906707541,0.0001339528411684518,0.007043859549856564,0.0004444522621511325,100,1,0
1892.649614119459,0.003005208808692039,0.0001989449645973806,0.2046672279618457,0.008117326703963772,0.002120774966178554,0.0001408182492489836,0.00704221512834194,0.0004675990715765205,100,1,0
1911.913151317432,0.003064384863463498,0.00018850809616211,0.2126030336164557,0.01287015769199527,0.002162744241042723,0.0001334514192309599,0.007044998871148897,0.0004347093290060269,100,1,0
1931.372754317866,0.003091421536770111,0.0002170730557169431,0.2169786061715112,0.01632692130777473,0.002181829595392075,0.0001536782311448411,0.007040978841093316,0.0004959347769929899,100,1,0
1951.030418693986,0.003097624155921963,0.0002094703462395264,0.2137820740215576,0.01322133552988915,0.00218592906579754,0.0001482778147824184,0.007041340040910091,0.0004776342154657982,100,1,0
1970.888160330103,0.003090645295330319,0.0002249246299625973,0.2117462522879829,0.01641500840803144,0.002181077372207017,0.0001592218492885614,0.007039034244428967,0.0005138598308731221,100,1,0
1990.948015628369,0.003034271497112995,0.0002393588578777361,0.2096808747041854,0.02072726509224139,0.002141467219968136,0.0001694440713401503,0.007036352458340699,0.0005567529574154602,100,1,0
2011.212041717595,0.003049494603319047,0.0002068414269782437,0.2072307297792819,0.01595558024488886,0.002152130222677369,0.000146421084314593,0.007041783591015201,0.0004790907065198182,100,1,0
2031.682316664214,0.00303169466495179,0.0002459276742343697,0.2066971041331381,0.0120857501812615,0.002139699838551285,0.0001740980048770202,0.007035267912110942,0.0005724289384921957,100,1,0
2052.360939685372,0.00306612189075417,0.0002363514466693362,0.2079181704261812,0.01468565411409799,0.002163939029158759,0.0001673198227915394,0.007037314219637317,0.0005441383293575731,100,1,0
2073.250031364225,0.003084397731089039,0.0002191465204703924,0.2054436075657673,0.01532554850061874,0.002176754195245802,0.0001551366674577705,0.007040183573947762,0.0005017519297027749,100,1,0
2094.351733867389,0.003085568006912398,0.0002156776564721241,0.2127463895321215,0.01588001167720746,0.0021775593289,0.0001526796978691508,0.007040686512249919,0.000493658140660051,100,1,0
2115.668211164621,0.00307839248841324,0.0002199658328652099,0.2051898182222485,0.01822888092394772,0.00217260562110161,0.000155722164240348,0.007040271109136577,0.0005046135586253596,100,1,0
2137.201649250725,0.003081114316848765,0.0002097528515340175,0.2103286858099104,0.009761603149664564,0.00217444726766557,0.0001484868870482082,0.00704167052871532,0.0004808558717317494,100,1,0
2158.954256369743,0.00307113984320706,0.0002151812395784214,0.2063272099248564,0.009943581618309674,0.002167339700552872,0.0001523234665462781,0.007040483495935376,0.000494814380961677,100,1,0
2180.928263241401,0.003014887896288565,0.000193323180600391,0.1960733613564524,0.01141279461486946,0.002127815978644962,0.0001368538141781741,0.007043863829855118,0.0004530371241413633,100,1,0
2203.12592328985,0.003082892350345201,0.0002117988920184999,0.207151350289776,0.01074915525554205,0.002175685250679077,0.0001499344328008795,0.007041315800148284,0.0004852428403132239,100,1,0
2225.549512874787,0.003014610122826999,0.0002234290497336033,0.1966377632885387,0.01249549821726671,0.002127626278576481,0.0001581665687488556,0.007039030185333209,0.0005232776371227521,100,1,0
2248.201331524871,0.003080027739691626,0.0002559417003497599,0.2107043101469142,0.02498638374863028,0.002173693136534437,0.0001811860963073267,0.007033743009598525,0.0005862908691748145,100,1,0
2271.08370217355,0.003045450473477818,0.000222825720890496,0.2052671417152668,0.01286379318274384,0.002149364348648263,0.0001577422313627567,0.007039427909454417,0.0005166248647666213,100,1,0
2294.19897139726,0.00309319356254445,0.0001747985667543972,0.2101222363313607,0.01031496606749392,0.002183034187763007,0.0001237470172692663,0.007046942245218324,0.0003994614874117694,100,1,0
2317.549509656089,0.003048829509117335,0.0001848128594088561,0.2027792993090902,0.01079817795967636,0.002151820809417027,0.0001308367246120298,0.007045565427822835,0.0004283900869356467,100,1,0
2341.137711536855,0.003049851173317686,0.0002025328993612852,0.2005145445782516,0.01493240375249166,0.0021524008794592,0.000143372394279339,0.00704251627712714,0.0004691051885542005,100,1,0
2364.965995998657,0.003057593969926664,0.0002338555236067741,0.2023723219492065,0.01579372882185662,0.002158200952860586,0.0001655729783886234,0.007038553422028374,0.0005399841252446876,100,1,0
2389.036806620963,0.003064396835494199,0.0002255776053385894,0.2067611303858704,0.01157422651579549,0.002162719869273088,0.0001596921896579883,0.00703914543264024,0.0005197605863940054,100,1,0
2413.35261185419,0.003053198430035708,0.0002381442616776752,0.1993518238035092,0.01940829789319673,0.002155076883160155,0.0001686071036139223,0.007037662281366942,0.0005506067383239831,100,1,0
2437.915905272817,0.003045052053291641,0.0001851815087389741,0.1979381644642864,0.009631133272960198,0.002149386146286605,0.0001311113329685149,0.007046240202509759,0.0004298166464706549,100,1,0
2462.729205831142,0.003077531036095094,0.0002066020982289807,0.206784230629841,0.01062268732119899,0.002171971082674546,0.0001462594195614684,0.007042290305534583,0.000474224219966368,100,1,0
2487.79505812157,0.003012470530300959,0.0002626159166787545,0.2004758389072989,0.01780118234125138,0.002126335447413537,0.0001859265156624859,0.007032371101193765,0.0006149096828917362,100,1,0
2513.116032635573,0.003075868733565468,0.0002303156175234022,0.2078544963758404,0.01502296735572564,0.002170962420200319,0.0001630592466771997,0.007038959259586422,0.0005286905860644769,100,1,0
2538.694726027277,0.003026662790473145,0.0002416607682305116,0.197559390424406,0.01973560393826273,0.002136285614865484,0.0001710874314808079,0.007036439203850431,0.0005635231084179887,100,1,0
2564.533761379772,0.003104726683469172,0.0002395837452928706,0.2080349481068311,0.0138320882517663,0.002191334223947095,0.0001696261858669032,0.007037749063609233,0.0005447761084103915,100,1,0
2590.635788474085,0.003075050866320428,0.000242773774257854,0.2036056906216636,0.02024421870382669,0.00217070143235258,0.0001719044653179385,0.007037787117110043,0.0005573438213826959,100,1,0
2617.003484060932,0.00308605987013677,0.0002218958755871858,0.2100054286866825,0.01566050002368564,0.002178490024957621,0.0001571238547349056,0.007041574552231384,0.000507874410428542,100,1,0
2643.639552135202,0.003074750322290321,0.000285588405314785,0.2033552251361813,0.0250509953526833,0.002170611018951982,0.0002022328905322577,0.007029798751137085,0.0006549568342230725,100,1,0
2670.546724213258,0.003078460746786416,0.0002472357622438359,0.2041050363483734,0.01983739059776832,0.002172934836186218,0.0001750505979170023,0.007036463954196319,0.000566854192721839,100,1,0
2697.72775961306,0.003101450675004891,0.0002671635968890529,0.2062783184612697,0.01785340265033053,0.002189192086941925,0.0001891673322279275,0.007033158849109667,0.0006077328273554144,100,1,0
2725.185445737111,0.003073734029847008,0.0002993073008279445,0.2058516991774042,0.02485157118651678,0.002169880100807277,0.0002119463600478296,0.007026768406891078,0.000686350359259747,100,1,0
