#Digilent WaveForms Impedance Analyzer Trace#Trace: Trace
#Start: 1000 Hz
#Stop: 2.5e+07 Hz
#Steps: 1001
#Resistor: 100 O
#Average: 1
#ProbeResistance: 1.04e+06 O
#ProbeCapacitance: 4.3e-11 F
#Compensation: Open Short
#Wavegen: Wavegen1
#Amplitude: 1 V
#Offset: 0 V
#Amplification: 1 X
#Settle: 0.01 s
#MinPeriods: 16
#Scale: Logarithmic

#L2_100_compensated
Frequency (Hz),Gain (X),Phase (rad),Real (Ohm),Imag (Ohm),VReal (V),VImag (V),IReal (A),IImag (A),Resistor (Ohm),Amplitude (V),Offset (V)
1000,0.001997123484741126,0.0001102140563497001,0.1095242266458336,0.005566023481210503,0.001410491964266146,7.799566790601206e-05,0.007052544133689739,0.0003899830017322707,100,1,0
1010.178078950409,0.001997311896816178,0.0001495650649758762,0.1090985173117571,0.01132064092327322,0.001410741523095507,0.0001058524016878945,0.007044118435132882,0.0005285425018870091,100,1,0
1020.459751191941,0.00202579942458514,0.0001360803154517587,0.1052925002153115,0.007711852209789852,0.001430807722179121,9.63077042725263e-05,0.007047693102117183,0.0004743804024544213,100,1,0
1030.846071105288,0.001971449290864458,0.0001266286100989333,0.1033612687660521,0.00375370528864818,0.001392490629822309,8.961807807123663e-05,0.007049407856137977,0.0004536866317642498,100,1,0
1041.338103802716,0.002009828696265981,0.0001088963557935863,0.1098942129366633,0.006519472303120879,0.001419400017704672,7.706059791314389e-05,0.007052607300734031,0.000382892862239098,100,1,0
1051.936925237291,0.002024193241471739,0.0001327578849377176,0.1096258466796783,0.005688139204571373,0.001429676578497281,9.3956376039856e-05,0.007048450558019097,0.000463214464787313,100,1,0
1062.643622313207,0.00199462197109046,0.00014447981342669,0.1026703342718835,0.006448129753574551,0.001408809014303232,0.0001022507168710387,0.007045221854128932,0.0005113389947014756,100,1,0
1073.45929299726,0.001974955202435513,0.0001541399871364257,0.1008195840694147,0.008987200665080092,0.001394990774429913,0.0001090909909812068,0.007042624474324521,0.0005507469275748695,100,1,0
1084.385046431436,0.001960299936442755,0.0001059419781443693,0.1042019351964859,0.00462227409519566,0.001384572421691156,7.49743981039146e-05,0.00705343006966561,0.0003819422268972451,100,1,0
1095.42200304666,0.00202761652998884,0.0001269608459690263,0.1135906474699674,0.008362498831446045,0.001432011636924721,8.984873177294154e-05,0.007049382053723478,0.0004422995044022008,100,1,0
1106.571294677684,0.002012181275919511,0.0001273887441566313,0.1109046152146713,0.004245083234618008,0.0014211386023819,9.015195392990054e-05,0.007049215032931209,0.0004471770085096878,100,1,0
1117.83406467917,0.002022241848981032,0.0001274576666161487,0.1132925518681943,0.006508055283036391,0.001428361473771908,9.020904935256839e-05,0.007049919232607213,0.0004452419948757604,100,1,0
1129.211468042934,0.002034588501294898,0.0001381193298368721,0.1091536016263015,0.008064492805313253,0.001437069583441651,9.775532542107822e-05,0.007047620767173224,0.0004794078654767801,100,1,0
1140.704671516382,0.002027089505079571,0.0001506809118296815,0.1104705461671476,0.00718144673540589,0.001431662536743681,0.0001066369888652014,0.007043857022584034,0.0005246597459997971,100,1,0
1152.314853722176,0.002014432398721455,0.0001342006930920014,0.1096120865403726,0.006841739316408777,0.00142278219262338,9.49765528522443e-05,0.007047968316249634,0.0004704808218431359,100,1,0
1164.043205279092,0.002067682679186111,0.0001130103155235762,0.1140511797483134,0.003225447028773768,0.001460304687746808,7.997901962230468e-05,0.007052649614915993,0.0003862645971580999,100,1,0
1175.890928924109,0.002038451302817101,0.000150496266172917,0.1100363859274853,0.01107124143538191,0.001439804571889955,0.0001065162174488544,0.007044694731149947,0.0005211639485621234,100,1,0
1187.859239635769,0.002029749747089582,0.0001579600672190623,0.1081560577676138,0.009719358149031772,0.001433658240170043,0.0001117979236650337,0.007042568726019978,0.0005491856697618186,100,1,0
1199.949364758755,0.002005174635449025,0.0001365094702865943,0.1095444975490901,0.007154958609322352,0.001416252896794333,9.661028768166893e-05,0.007047324525588583,0.0004807362098564981,100,1,0
1212.162544129765,0.002019506703199614,0.0001498449479344632,0.1100680073855276,0.007831075966648306,0.001426448646717703,0.0001060550959526018,0.007044626655034846,0.0005237612707398312,100,1,0
1224.500030204646,0.002088416808837978,0.0001374526661983566,0.1168837896538907,0.003938693495207627,0.00147497443425708,9.728110396705387e-05,0.007048042255469335,0.0004648496377253123,100,1,0
1236.963088186847,0.002058776412696028,0.0001422839971607637,0.1130214270565682,0.004967970101939802,0.00145405025669052,0.0001006981808823707,0.007046527789468367,0.0004879972522762418,100,1,0
1249.552996157157,0.001974685831756195,0.0001512121740647743,0.1023174393831971,0.008310176268602195,0.001394713897991279,0.0001070121631958222,0.00704298545193363,0.0005403868920024454,100,1,0
1262.271045204765,0.002084792253097545,0.0001552445372030586,0.1112826648723337,0.007805466375387954,0.001472433437757321,0.0001098743196417431,0.007043870723610859,0.0005256200270620946,100,1,0
1275.118539559674,0.002035107380087275,0.0001612021441720346,0.1054750213979761,0.008565830145953962,0.001437331447114948,0.0001140843642864634,0.007041260375259458,0.0005588813319985042,100,1,0
1288.096796726446,0.002040277232786991,0.000162250343295714,0.1068438644902494,0.007944449469020717,0.001441019106125574,0.0001148296825318399,0.007041263715884215,0.0005610932385843667,100,1,0
1301.207147619296,0.002032284391667138,0.0001493911953025506,0.1123023470072258,0.008223689635784258,0.001435442707263292,0.0001057329831964061,0.00704483060112088,0.0005189137482121852,100,1,0
1314.450936698602,0.002040239795187304,0.0001549530378648356,0.1091896751464538,0.009879190710461429,0.00144109042169404,0.0001096725227685066,0.007043690922183057,0.0005360519655174384,100,1,0
1327.829522108759,0.002002885380645747,0.0001314698183434437,0.103558286151553,0.007388397246349355,0.001414592365737372,9.304051909960965e-05,0.007048253338367253,0.0004635774695457349,100,1,0
1341.344275817469,0.002078170035155757,0.0001768569233888684,0.1143357266679119,0.01125111395314386,0.00146787760188027,0.0001251802184228408,0.00703850267285243,0.0006002416692160163,100,1,0
1354.996583756418,0.00206769122785877,0.0002267682143504146,0.1120001973624362,0.01738033815419511,0.001460415837647705,0.000160500170035974,0.007021517910743136,0.0007716670755913599,100,1,0
1368.787845963426,0.002075914633137943,0.000154778666381139,0.1126458783841239,0.009258976660484036,0.001466310373365391,0.0001095546082529984,0.007044527761519695,0.0005263281862143295,100,1,0
1382.719476726005,0.00207583034997616,0.0001725176668884165,0.1109318026053397,0.007256456399910985,0.001466207130220769,0.0001221070533017575,0.007039591780637852,0.0005862635578995794,100,1,0
1396.79290472639,0.00208081888001943,0.000141748751816273,0.1097683143021127,0.005986434902909584,0.001469797401271782,0.0001003338062250217,0.007047863959996244,0.0004811132583652046,100,1,0
1411.009573188066,0.002071153785334401,0.0001648754440384259,0.106023313701185,0.007027165435495893,0.001462909781998557,0.0001166977787412138,0.007041616849846978,0.000561716829865764,100,1,0
1425.37094002376,0.002070918289838408,0.0001854717746354595,0.1107981414725719,0.0100884676040447,0.001462555165104619,0.0001312590298498862,0.007034814924636454,0.0006313491649494328,100,1,0
1439.878477984941,0.002090754595150957,0.0001910899138266586,0.1139269516487331,0.007620088653598416,0.001476672609178528,0.000135247665320622,0.007034168159275698,0.0006442557511403517,100,1,0
1454.533674812867,0.002060949710088966,0.0001769393843015221,0.1123110741565697,0.0079757797371137,0.001455733732439254,0.0001252381097342496,0.007038147368475782,0.0006054982809129705,100,1,0
1469.33803339114,0.002077853884220326,0.0001621518326293536,0.1110080988962741,0.0124156904896359,0.001467660596024675,0.0001147722001859624,0.00704257126688868,0.0005507345509286027,100,1,0
1484.293071899837,0.002073536314181945,0.0001786552017696732,0.109131895643511,0.01394427144117021,0.001464580449905286,0.0001264503957579114,0.007037752504404939,0.0006076324380035171,100,1,0
1499.400323971179,0.002024056825560283,0.0001610652004673252,0.1043147718004633,0.009836758707521348,0.00142959755097173,0.0001139918355667603,0.007041406072415115,0.0005614606730544151,100,1,0
1514.661338846826,0.002089012053780204,0.0001865865993728733,0.1099349804289401,0.01548368670317363,0.001475446893140277,0.0001320605220993062,0.007035505971361392,0.0006297160515437386,100,1,0
1530.077681536745,0.00207990360185728,0.0002047503409525753,0.1119454885295008,0.0149771133246206,0.001469079153541783,0.0001449216794216189,0.007029836047329126,0.0006934790706010768,100,1,0
1545.650932979684,0.002069526877193084,0.0001378165964469602,0.1090881994673222,0.009675497433485279,0.001461846378082476,9.755106976740572e-05,0.007048709163510195,0.0004703702999775403,100,1,0
1561.382690205325,0.002010197714476858,0.0001818133806773536,0.1049860644982689,0.01312587498951854,0.001419856158952463,0.0001286788390801258,0.007035171139054519,0.0006375840603258252,100,1,0
1577.27456649804,0.002048699233954565,0.000196283866113478,0.1057019810300755,0.009193382708805936,0.00144711050559936,0.0001389315921245462,0.007031970179785029,0.0006751127913657357,100,1,0
1593.328191562329,0.002092843131374478,0.0001843160835359736,0.1087333920907368,0.009621546324480867,0.001478174583583506,0.0001304559156467578,0.007036384408418587,0.0006209942864918434,100,1,0
1609.545211689963,0.002081773329300374,0.0001738847970877977,0.1159930159093586,0.009452650859804363,0.001470454959900851,0.000123079640874501,0.007039586969727145,0.0005892256884884492,100,1,0
1625.927289928796,0.002063562337614844,0.0001713952405006935,0.1089583942383368,0.00701399987826392,0.001457636429208787,0.0001213189783432025,0.007040077411346489,0.000585945151950697,100,1,0
1642.47610625332,0.002076589687521002,0.0002181359098702984,0.1086821156040749,0.01506185283135157,0.001466730052303643,0.0001543947619505573,0.007025113478863193,0.0007394958067036258,100,1,0
1659.193357736926,0.002067345967465162,0.000220221562666989,0.1079625686459242,0.01646364816196607,0.001460237173281705,0.0001558734292352205,0.007024198804071295,0.0007498000840232719,100,1,0
1676.080758725967,0.002126424179420328,0.0002031108310166785,0.1134879640901258,0.01350814516099783,0.001502071290520615,0.0001437806554565689,0.007032440134622862,0.0006731563664096804,100,1,0
1693.140041015545,0.002094006198222198,0.0002417320412788637,0.1103158078398132,0.01644527570103419,0.001479093200506839,0.0001711064298388869,0.00701743952218619,0.0008118007863467503,100,1,0
1710.3729540271,0.002050763914011711,0.0002222929797777162,0.111550796346136,0.01472262290766514,0.001448499440935188,0.000157334286683902,0.0070226778571626,0.0007627949173070819,100,1,0
1727.781264987832,0.002100582282561492,0.0002062911065290329,0.1113512085334085,0.01252262393402879,0.001483671960661589,0.0001460139724052064,0.007029935495285481,0.0006918435035742529,100,1,0
1745.366759111919,0.002083120293514096,0.0001562315144434945,0.1082806842614319,0.006515807772383864,0.001471394876843119,0.0001105833715738017,0.007044272130090581,0.0005294155734047979,100,1,0
1763.13123978358,0.002082513193519597,0.0001981263792985022,0.1089492285519904,0.01275855490315113,0.001470924963293463,0.000140233780566118,0.007032080651182755,0.0006704184642792437,100,1,0
1781.076528742029,0.002063845645632556,0.0001515936921059891,0.1033484445570075,0.007228558155657789,0.001457952083876253,0.0001073111829478897,0.00704590827594173,0.0005186074085668029,100,1,0
1799.204466268286,0.002094604669340416,0.0001735361522621215,0.1055131209840101,0.005397632183647454,0.00147964777458212,0.0001228451717935816,0.007040597755233084,0.0005845333299104764,100,1,0
1817.516911373893,0.002114826074300469,0.0002141652939027239,0.111219224640559,0.01229987154974814,0.001493917150367051,0.0001516083614294788,0.007028673680363773,0.0007132963828955569,100,1,0
1836.015741991564,0.002095140649612137,0.000203114228408241,0.1111518314673838,0.01232043109477312,0.001480051331497211,0.0001437861913849775,0.007031853402105754,0.0006831407786670998,100,1,0
1854.702855167748,0.002091840337396844,0.0002210078392975157,0.1101160094191435,0.01117392936311062,0.001477593192857266,0.0001564395760539073,0.007025101948947979,0.0007437798007878766,100,1,0
1873.580167257198,0.002066571239224491,0.0002138616937765736,0.1103769303438834,0.01309626897436707,0.001459731802730048,0.0001513760184216727,0.007026621144928353,0.0007286694239910964,100,1,0
1892.649614119459,0.002115140025876538,0.0002301912761693004,0.1156684022764293,0.01123512503489311,0.001493978021611266,0.0001629359873169934,0.007022385698176048,0.0007658742836250167,100,1,0
1911.913151317432,0.002079463332538722,0.0001786048485858949,0.1141204756947595,0.01186440130598314,0.001468928453919669,0.0001264294121545438,0.007038689318226942,0.0006058139526586938,100,1,0
1931.372754317866,0.002099260533489966,0.0002194279988674275,0.1177720112390741,0.01654654378492968,0.001482974059647726,0.0001553370255778214,0.00702658676896967,0.0007360136082997307,100,1,0
1951.030418693986,0.002079060027885715,0.0002069705152398793,0.1119354979194003,0.01295491138143698,0.001468688030360259,0.0001465134432077149,0.007030050940884573,0.0007013041217623213,100,1,0
1970.888160330103,0.002114424446550967,0.0002226808301757366,0.1141336005326267,0.01617342949599797,0.001493540116931584,0.0001576267661846086,0.007025322427580447,0.0007414456720042934,100,1,0
1990.948015628369,0.002110969667825868,0.0002030800537911048,0.1173601742398755,0.0170749637835497,0.001491080273211425,0.0001437495076368381,0.007031632379155187,0.000677893545067029,100,1,0
2011.212041717595,0.002117359929259655,0.0002399113925490859,0.1140256624146522,0.01925505311342364,0.001495816170076551,0.0001698473996514268,0.007020198213595905,0.0007971316499111218,100,1,0
2031.682316664214,0.002125441288151508,0.0002206305648189133,0.1160809308727513,0.009533622271652798,0.001501425950619673,0.0001561879591085698,0.007026908714733876,0.000730984122489382,100,1,0
2052.360939685372,0.002110958345971969,0.000231462052532716,0.1124110767439623,0.01417846534962469,0.001491277839040709,0.0001638626712953231,0.007022958389563833,0.0007716876707898396,100,1,0
2073.250031364225,0.002131634570265994,0.0002438576967020989,0.1101760033894577,0.0177861597450436,0.00150579320773817,0.0001726314366074589,0.007018833463805217,0.0008046731104500302,100,1,0
2094.351733867389,0.002102224487302573,0.0002318044553315524,0.1144212205470872,0.01748029781923619,0.001485147244618949,0.0001641080127757357,0.007022672264615072,0.0007760017021187357,100,1,0
2115.668211164621,0.002149407713485818,0.0002200188239118717,0.1123002572601757,0.01821908018605448,0.001518508511571076,0.000155774238921012,0.007028649625244049,0.0007210249647412664,100,1,0
2137.201649250725,0.002113527255666936,0.0002648014625941109,0.1135782999578867,0.01526286062044474,0.001493044441957242,0.0001874603402290092,0.007009989976002344,0.0008801446688222405,100,1,0
2158.954256369743,0.002058465112279473,0.0002362340955977538,0.1050691208625922,0.01203714264576461,0.001454189279156275,0.0001672318381791193,0.007018949748667392,0.0008071795641606935,100,1,0
2180.928263241401,0.002066602278043783,0.000252694443605872,0.1012529448627507,0.01734888765912587,0.001459793500289954,0.0001788683583088089,0.007012083458472106,0.0008591899171301522,100,1,0
2203.12592328985,0.002126508781086445,0.0002363827226914417,0.111521802550046,0.0131979842389719,0.001502197220288307,0.0001673415428040318,0.007021487820042479,0.0007821786571806591,100,1,0
2225.549512874787,0.002158593519687724,0.0002281059438917765,0.111044260388417,0.01295017959945536,0.001524867320654539,0.0001614877141220279,0.007025647450476732,0.0007440357148697636,100,1,0
2248.201331524871,0.00209712675305096,0.0002009776676802355,0.112424592068204,0.01945981354129926,0.001481613075358459,0.0001422891970514389,0.007033354226063681,0.0006754599713307886,100,1,0
2271.08370217355,0.002143905771050392,0.0002475205305829398,0.1151209076744288,0.01532377849442814,0.001514487518469607,0.0001752296270296534,0.007018112309991993,0.0008120114477898193,100,1,0
2294.19897139726,0.002132875316036342,0.0002318841805650784,0.1140988487138121,0.0160243265752704,0.001506826192317538,0.0001641721953744914,0.007023966726358497,0.0007652774046421998,100,1,0
2317.549509656089,0.002131895597008437,0.0002389172816381624,0.11109392203674,0.01620845561567533,0.001506174271669743,0.0001691560612828978,0.007021583863754561,0.0007885830296673054,100,1,0
2341.137711536855,0.00212883887065729,0.0002252185496072201,0.1084218342832639,0.01719276453636744,0.001504017531899997,0.0001594567859772913,0.007026351177773556,0.0007449377099614973,100,1,0
2364.965995998657,0.002156033252239231,0.0002417640074553473,0.1122247889405786,0.01657088986733011,0.001523092030241653,0.0001711605122608205,0.007020907563755022,0.0007889885255046063,100,1,0
2389.036806620963,0.002114903383781064,0.0002635318203196846,0.1118202469260229,0.01536204008110954,0.00149414322490882,0.0001865775652548024,0.00701117351254834,0.0008755035405859826,100,1,0
2413.35261185419,0.002057698110259132,0.0002257103613807487,0.09981158255318688,0.01814525581350053,0.001453822966090523,0.0001598009934444168,0.007023752146240749,0.0007720352455945033,100,1,0
2437.915905272817,0.002121627305791352,0.0002771648024456619,0.1056030479966497,0.018837090089988,0.001498829805160502,0.000196222864317938,0.007005556351332748,0.000917149050990503,100,1,0
2462.729205831142,0.002124724292245972,0.0002599061509521716,0.1115118183381543,0.01595058603945583,0.001501008808342277,0.0001840034245573977,0.007012783623940246,0.0008596726383705516,100,1,0
2487.79505812157,0.002148565601820751,0.0002642476775367442,0.1140936295114744,0.01794782682233341,0.001517937802681496,0.0001870922137556637,0.007012617969503535,0.0008643346373082305,100,1,0
2513.116032635573,0.002143573818726097,0.0002249124603319608,0.1146340543972738,0.01446642291586963,0.00151445159435565,0.0001592449052644833,0.007027099744687096,0.0007389010235106801,100,1,0
2538.694726027277,0.00214992336111286,0.000292689917278155,0.1098928869913165,0.02483383746961453,0.00151891497388022,0.000207233331753785,0.007000933907454702,0.0009551731887424878,100,1,0
2564.533761379772,0.002136538454103443,0.0002534366737931837,0.1112252069732629,0.01520373571785891,0.001509549454860012,0.0001794483735346928,0.007016779381894451,0.0008341228195465069,100,1,0
2590.635788474085,0.002090420370570056,0.0002399394995449278,0.1051521549901034,0.01994323003269161,0.001477058490664416,0.0001698942624670652,0.007020334090430457,0.000807493061449155,100,1,0
2617.003484060932,0.002115003000665139,0.0002468783118652063,0.1129086727340303,0.01814912409645124,0.001494388866270867,0.0001748072356566976,0.007018584172153165,0.0008210040405477455,100,1,0
2643.639552135202,0.002114639071437496,0.0002867145981445551,0.1073533115115701,0.02514330367511549,0.001494298682359112,0.0002030377662606795,0.007002916728485231,0.0009515209955324611,100,1,0
2670.546724213258,0.002108905987723508,0.0002447564450691608,0.1071589490525112,0.01957200761853735,0.001490147853321277,0.0001733114984451621,0.007019439821734715,0.0008163952530207053,100,1,0
2697.72775961306,0.002071681194270258,0.0002114184950001707,0.1033121884203893,0.01224789823212973,0.001463804149111829,0.0001496947287386928,0.007029871341460961,0.0007189040174304868,100,1,0
2725.185445737111,0.002118605351395075,0.0002552302269999557,0.1103489237984285,0.02041341202538906,0.001496970623403478,0.0001807262058820953,0.007015676116012378,0.00084698824834775,100,1,0
